                                kicad schematic
                                SP Analysis  Sat Oct 11 21:03:32  2025
--------------------------------------------------------------------------------
Index   frequency       /n1                             
--------------------------------------------------------------------------------
0	1.000000e+08	6.516581e-15,	-2.82023e-15	
1	3.002004e+08	5.253680e-12,	-1.05632e-12	
2	5.004008e+08	4.099265e-11,	-1.31953e-11	
3	7.006012e+08	1.477367e-10,	-6.59060e-11	
4	9.008016e+08	3.679572e-10,	-2.10243e-10	
5	1.101002e+09	7.364000e-10,	-5.13436e-10	
6	1.301202e+09	1.276433e-09,	-1.05112e-09	
7	1.501403e+09	2.000885e-09,	-1.90107e-09	
8	1.701603e+09	2.914809e-09,	-3.13956e-09	
9	1.901804e+09	4.018350e-09,	-4.83999e-09	
10	2.102004e+09	5.308986e-09,	-7.07282e-09	
11	2.302204e+09	6.783000e-09,	-9.90605e-09	
12	2.502405e+09	8.436355e-09,	-1.34059e-08	
13	2.702605e+09	1.026516e-08,	-1.76377e-08	
14	2.902806e+09	1.226588e-08,	-2.26658e-08	
15	3.103006e+09	1.443541e-08,	-2.85549e-08	
16	3.303206e+09	1.677109e-08,	-3.53696e-08	
17	3.503407e+09	1.927062e-08,	-4.31749e-08	
18	3.703607e+09	2.193207e-08,	-5.20368e-08	
19	3.903808e+09	2.475379e-08,	-6.20219e-08	
20	4.104008e+09	2.773439e-08,	-7.31978e-08	
21	4.304208e+09	3.087267e-08,	-8.56332e-08	
22	4.504409e+09	3.416760e-08,	-9.93979e-08	
23	4.704609e+09	3.761828e-08,	-1.14563e-07	
24	4.904810e+09	4.122394e-08,	-1.31202e-07	
25	5.105010e+09	4.498390e-08,	-1.49388e-07	
26	5.305210e+09	4.889753e-08,	-1.69197e-07	
27	5.505411e+09	5.296429e-08,	-1.90706e-07	
28	5.705611e+09	5.718368e-08,	-2.13994e-07	
29	5.905812e+09	6.155524e-08,	-2.39143e-07	
30	6.106012e+09	6.607853e-08,	-2.66235e-07	
31	6.306212e+09	7.075315e-08,	-2.95356e-07	
32	6.506413e+09	7.557872e-08,	-3.26593e-07	
33	6.706613e+09	8.055486e-08,	-3.60035e-07	
34	6.906814e+09	8.568122e-08,	-3.95774e-07	
35	7.107014e+09	9.095744e-08,	-4.33906e-07	
36	7.307214e+09	9.638319e-08,	-4.74526e-07	
37	7.507415e+09	1.019581e-07,	-5.17737e-07	
38	7.707615e+09	1.076819e-07,	-5.63640e-07	
39	7.907816e+09	1.135541e-07,	-6.12343e-07	
40	8.108016e+09	1.195745e-07,	-6.63954e-07	
41	8.308216e+09	1.257427e-07,	-7.18588e-07	
42	8.508417e+09	1.320582e-07,	-7.76361e-07	
43	8.708617e+09	1.385209e-07,	-8.37393e-07	
44	8.908818e+09	1.451302e-07,	-9.01811e-07	
45	9.109018e+09	1.518858e-07,	-9.69742e-07	
46	9.309218e+09	1.587873e-07,	-1.04132e-06	
47	9.509419e+09	1.658342e-07,	-1.11669e-06	
48	9.709619e+09	1.730262e-07,	-1.19598e-06	
49	9.909820e+09	1.803628e-07,	-1.27936e-06	
50	1.011002e+10	1.878435e-07,	-1.36697e-06	
51	1.031022e+10	1.954678e-07,	-1.45897e-06	
52	1.051042e+10	2.032354e-07,	-1.55553e-06	
53	1.071062e+10	2.111455e-07,	-1.65683e-06	
54	1.091082e+10	2.191978e-07,	-1.76304e-06	

Index   frequency       /n1                             
--------------------------------------------------------------------------------
55	1.111102e+10	2.273916e-07,	-1.87435e-06	
56	1.131122e+10	2.357264e-07,	-1.99096e-06	
57	1.151142e+10	2.442015e-07,	-2.11308e-06	
58	1.171162e+10	2.528163e-07,	-2.24090e-06	
59	1.191182e+10	2.615702e-07,	-2.37466e-06	
60	1.211202e+10	2.704624e-07,	-2.51459e-06	
61	1.231222e+10	2.794922e-07,	-2.66093e-06	
62	1.251242e+10	2.886588e-07,	-2.81393e-06	
63	1.271263e+10	2.979615e-07,	-2.97385e-06	
64	1.291283e+10	3.073993e-07,	-3.14098e-06	
65	1.311303e+10	3.169715e-07,	-3.31560e-06	
66	1.331323e+10	3.266771e-07,	-3.49801e-06	
67	1.351343e+10	3.365150e-07,	-3.68854e-06	
68	1.371363e+10	3.464843e-07,	-3.88752e-06	
69	1.391383e+10	3.565840e-07,	-4.09531e-06	
70	1.411403e+10	3.668128e-07,	-4.31226e-06	
71	1.431423e+10	3.771696e-07,	-4.53877e-06	
72	1.451443e+10	3.876531e-07,	-4.77526e-06	
73	1.471463e+10	3.982620e-07,	-5.02214e-06	
74	1.491483e+10	4.089949e-07,	-5.27988e-06	
75	1.511503e+10	4.198503e-07,	-5.54896e-06	
76	1.531523e+10	4.308266e-07,	-5.82987e-06	
77	1.551543e+10	4.419223e-07,	-6.12316e-06	
78	1.571563e+10	4.531354e-07,	-6.42940e-06	
79	1.591583e+10	4.644642e-07,	-6.74918e-06	
80	1.611603e+10	4.759068e-07,	-7.08314e-06	
81	1.631623e+10	4.874609e-07,	-7.43195e-06	
82	1.651643e+10	4.991245e-07,	-7.79632e-06	
83	1.671663e+10	5.108951e-07,	-8.17703e-06	
84	1.691683e+10	5.227702e-07,	-8.57487e-06	
85	1.711703e+10	5.347472e-07,	-8.99072e-06	
86	1.731723e+10	5.468232e-07,	-9.42548e-06	
87	1.751743e+10	5.589951e-07,	-9.88013e-06	
88	1.771764e+10	5.712597e-07,	-1.03557e-05	
89	1.791784e+10	5.836135e-07,	-1.08534e-05	
90	1.811804e+10	5.960528e-07,	-1.13743e-05	
91	1.831824e+10	6.085736e-07,	-1.19198e-05	
92	1.851844e+10	6.211715e-07,	-1.24912e-05	
93	1.871864e+10	6.338421e-07,	-1.30900e-05	
94	1.891884e+10	6.465803e-07,	-1.37178e-05	
95	1.911904e+10	6.593807e-07,	-1.43763e-05	
96	1.931924e+10	6.722375e-07,	-1.50674e-05	
97	1.951944e+10	6.851446e-07,	-1.57931e-05	
98	1.971964e+10	6.980951e-07,	-1.65556e-05	
99	1.991984e+10	7.110818e-07,	-1.73572e-05	
100	2.012004e+10	7.240965e-07,	-1.82004e-05	
101	2.032024e+10	7.371306e-07,	-1.90881e-05	
102	2.052044e+10	7.501746e-07,	-2.00233e-05	
103	2.072064e+10	7.632182e-07,	-2.10093e-05	
104	2.092084e+10	7.762501e-07,	-2.20498e-05	
105	2.112104e+10	7.892579e-07,	-2.31487e-05	
106	2.132124e+10	8.022278e-07,	-2.43104e-05	
107	2.152144e+10	8.151449e-07,	-2.55397e-05	
108	2.172164e+10	8.279924e-07,	-2.68420e-05	
109	2.192184e+10	8.407520e-07,	-2.82232e-05	
110	2.212204e+10	8.534032e-07,	-2.96898e-05	
111	2.232224e+10	8.659232e-07,	-3.12491e-05	
112	2.252244e+10	8.782866e-07,	-3.29092e-05	

Index   frequency       /n1                             
--------------------------------------------------------------------------------
113	2.272265e+10	8.904648e-07,	-3.46793e-05	
114	2.292285e+10	9.024256e-07,	-3.65697e-05	
115	2.312305e+10	9.141330e-07,	-3.85919e-05	
116	2.332325e+10	9.255465e-07,	-4.07590e-05	
117	2.352345e+10	9.366189e-07,	-4.30858e-05	
118	2.372365e+10	9.472972e-07,	-4.55895e-05	
119	2.392385e+10	9.575206e-07,	-4.82896e-05	
120	2.412405e+10	9.672180e-07,	-5.12083e-05	
121	2.432425e+10	9.763090e-07,	-5.43719e-05	
122	2.452445e+10	9.846977e-07,	-5.78106e-05	
123	2.472465e+10	9.922730e-07,	-6.15600e-05	
124	2.492485e+10	9.989034e-07,	-6.56619e-05	
125	2.512505e+10	1.004432e-06,	-7.01663e-05	
126	2.532525e+10	1.008673e-06,	-7.51328e-05	
127	2.552545e+10	1.011398e-06,	-8.06335e-05	
128	2.572565e+10	1.012333e-06,	-8.67562e-05	
129	2.592585e+10	1.011135e-06,	-9.36093e-05	
130	2.612605e+10	1.007380e-06,	-1.01328e-04	
131	2.632625e+10	1.000532e-06,	-1.10082e-04	
132	2.652645e+10	9.899028e-07,	-1.20089e-04	
133	2.672665e+10	9.745917e-07,	-1.31635e-04	
134	2.692685e+10	9.534087e-07,	-1.45095e-04	
135	2.712705e+10	9.247342e-07,	-1.60981e-04	
136	2.732725e+10	8.863075e-07,	-1.80004e-04	
137	2.752745e+10	8.348918e-07,	-2.03181e-04	
138	2.772766e+10	7.656557e-07,	-2.32024e-04	
139	2.792786e+10	6.710811e-07,	-2.68882e-04	
140	2.812806e+10	5.387660e-07,	-3.17606e-04	
141	2.832826e+10	3.467234e-07,	-3.84985e-04	
142	2.852846e+10	5.188196e-08,	-4.84215e-04	
143	2.872866e+10	-4.43130e-07,	-6.44765e-04	
144	2.892886e+10	-1.41486e-06,	-9.48679e-04	
145	2.912906e+10	-4.07965e-06,	-1.74219e-03	
146	2.932926e+10	-3.52227e-05,	-9.08907e-03	
147	2.952946e+10	9.949153e-06,	2.955107e-03	
148	2.972966e+10	5.561969e-06,	1.295624e-03	
149	2.992986e+10	4.272484e-06,	8.397629e-04	
150	3.013006e+10	3.667178e-06,	6.266197e-04	
151	3.033026e+10	3.322214e-06,	5.031496e-04	
152	3.053046e+10	3.103912e-06,	4.226299e-04	
153	3.073066e+10	2.956767e-06,	3.659935e-04	
154	3.093086e+10	2.853598e-06,	3.240046e-04	
155	3.113106e+10	2.779530e-06,	2.916457e-04	
156	3.133126e+10	2.725731e-06,	2.659562e-04	
157	3.153146e+10	2.686640e-06,	2.450762e-04	
158	3.173166e+10	2.658561e-06,	2.277786e-04	
159	3.193186e+10	2.638958e-06,	2.132209e-04	
160	3.213206e+10	2.626029e-06,	2.008059e-04	
161	3.233226e+10	2.618455e-06,	1.900979e-04	
162	3.253246e+10	2.615251e-06,	1.807719e-04	
163	3.273267e+10	2.615669e-06,	1.725806e-04	
164	3.293287e+10	2.619121e-06,	1.653323e-04	
165	3.313307e+10	2.625151e-06,	1.588763e-04	
166	3.333327e+10	2.633394e-06,	1.530921e-04	
167	3.353347e+10	2.643554e-06,	1.478828e-04	
168	3.373367e+10	2.655386e-06,	1.431690e-04	
169	3.393387e+10	2.668693e-06,	1.388856e-04	
170	3.413407e+10	2.683308e-06,	1.349780e-04	

Index   frequency       /n1                             
--------------------------------------------------------------------------------
171	3.433427e+10	2.699093e-06,	1.314009e-04	
172	3.453447e+10	2.715930e-06,	1.281157e-04	
173	3.473467e+10	2.733718e-06,	1.250898e-04	
174	3.493487e+10	2.752374e-06,	1.222950e-04	
175	3.513507e+10	2.771819e-06,	1.197074e-04	
176	3.533527e+10	2.791993e-06,	1.173060e-04	
177	3.553547e+10	2.812839e-06,	1.150726e-04	
178	3.573567e+10	2.834309e-06,	1.129915e-04	
179	3.593587e+10	2.856360e-06,	1.110486e-04	
180	3.613607e+10	2.878953e-06,	1.092317e-04	
181	3.633627e+10	2.902057e-06,	1.075300e-04	
182	3.653647e+10	2.925639e-06,	1.059337e-04	
183	3.673667e+10	2.949676e-06,	1.044343e-04	
184	3.693687e+10	2.974143e-06,	1.030240e-04	
185	3.713707e+10	2.999019e-06,	1.016961e-04	
186	3.733727e+10	3.024284e-06,	1.004442e-04	
187	3.753747e+10	3.049922e-06,	9.926283e-05	
188	3.773768e+10	3.075916e-06,	9.814687e-05	
189	3.793788e+10	3.102253e-06,	9.709175e-05	
190	3.813808e+10	3.128920e-06,	9.609329e-05	
191	3.833828e+10	3.155905e-06,	9.514772e-05	
192	3.853848e+10	3.183197e-06,	9.425157e-05	
193	3.873868e+10	3.210787e-06,	9.340166e-05	
194	3.893888e+10	3.238666e-06,	9.259510e-05	
195	3.913908e+10	3.266825e-06,	9.182922e-05	
196	3.933928e+10	3.295258e-06,	9.110158e-05	
197	3.953948e+10	3.323955e-06,	9.040992e-05	
198	3.973968e+10	3.352912e-06,	8.975215e-05	
199	3.993988e+10	3.382122e-06,	8.912635e-05	
200	4.014008e+10	3.411580e-06,	8.853074e-05	
201	4.034028e+10	3.441281e-06,	8.796367e-05	
202	4.054048e+10	3.471220e-06,	8.742361e-05	
203	4.074068e+10	3.501392e-06,	8.690913e-05	
204	4.094088e+10	3.531793e-06,	8.641890e-05	
205	4.114108e+10	3.562420e-06,	8.595169e-05	
206	4.134128e+10	3.593269e-06,	8.550635e-05	
207	4.154148e+10	3.624337e-06,	8.508179e-05	
208	4.174168e+10	3.655619e-06,	8.467702e-05	
209	4.194188e+10	3.687115e-06,	8.429108e-05	
210	4.214208e+10	3.718819e-06,	8.392309e-05	
211	4.234228e+10	3.750731e-06,	8.357222e-05	
212	4.254248e+10	3.782848e-06,	8.323770e-05	
213	4.274269e+10	3.815166e-06,	8.291878e-05	
214	4.294289e+10	3.847685e-06,	8.261479e-05	
215	4.314309e+10	3.880402e-06,	8.232507e-05	
216	4.334329e+10	3.913315e-06,	8.204900e-05	
217	4.354349e+10	3.946423e-06,	8.178602e-05	
218	4.374369e+10	3.979722e-06,	8.153557e-05	
219	4.394389e+10	4.013213e-06,	8.129714e-05	
220	4.414409e+10	4.046892e-06,	8.107024e-05	
221	4.434429e+10	4.080760e-06,	8.085441e-05	
222	4.454449e+10	4.114814e-06,	8.064921e-05	
223	4.474469e+10	4.149053e-06,	8.045423e-05	
224	4.494489e+10	4.183476e-06,	8.026908e-05	
225	4.514509e+10	4.218081e-06,	8.009338e-05	
226	4.534529e+10	4.252868e-06,	7.992677e-05	
227	4.554549e+10	4.287835e-06,	7.976893e-05	
228	4.574569e+10	4.322982e-06,	7.961952e-05	

Index   frequency       /n1                             
--------------------------------------------------------------------------------
229	4.594589e+10	4.358306e-06,	7.947824e-05	
230	4.614609e+10	4.393809e-06,	7.934481e-05	
231	4.634629e+10	4.429487e-06,	7.921895e-05	
232	4.654649e+10	4.465341e-06,	7.910039e-05	
233	4.674669e+10	4.501370e-06,	7.898888e-05	
234	4.694689e+10	4.537573e-06,	7.888418e-05	
235	4.714709e+10	4.573949e-06,	7.878605e-05	
236	4.734729e+10	4.610497e-06,	7.869429e-05	
237	4.754749e+10	4.647217e-06,	7.860868e-05	
238	4.774770e+10	4.684108e-06,	7.852902e-05	
239	4.794790e+10	4.721171e-06,	7.845512e-05	
240	4.814810e+10	4.758402e-06,	7.838679e-05	
241	4.834830e+10	4.795802e-06,	7.832385e-05	
242	4.854850e+10	4.833371e-06,	7.826615e-05	
243	4.874870e+10	4.871108e-06,	7.821352e-05	
244	4.894890e+10	4.909012e-06,	7.816579e-05	
245	4.914910e+10	4.947083e-06,	7.812283e-05	
246	4.934930e+10	4.985321e-06,	7.808449e-05	
247	4.954950e+10	5.023725e-06,	7.805063e-05	
248	4.974970e+10	5.062294e-06,	7.802112e-05	
249	4.994990e+10	5.101028e-06,	7.799583e-05	
250	5.015010e+10	5.139926e-06,	7.797465e-05	
251	5.035030e+10	5.178989e-06,	7.795745e-05	
252	5.055050e+10	5.218215e-06,	7.794412e-05	
253	5.075070e+10	5.257605e-06,	7.793455e-05	
254	5.095090e+10	5.297158e-06,	7.792864e-05	
255	5.115110e+10	5.336873e-06,	7.792628e-05	
256	5.135130e+10	5.376750e-06,	7.792739e-05	
257	5.155150e+10	5.416790e-06,	7.793186e-05	
258	5.175170e+10	5.456990e-06,	7.793960e-05	
259	5.195190e+10	5.497352e-06,	7.795054e-05	
260	5.215210e+10	5.537875e-06,	7.796457e-05	
261	5.235230e+10	5.578559e-06,	7.798163e-05	
262	5.255251e+10	5.619403e-06,	7.800163e-05	
263	5.275271e+10	5.660407e-06,	7.802450e-05	
264	5.295291e+10	5.701569e-06,	7.805017e-05	
265	5.315311e+10	5.742891e-06,	7.807855e-05	
266	5.335331e+10	5.784373e-06,	7.810960e-05	
267	5.355351e+10	5.826012e-06,	7.814323e-05	
268	5.375371e+10	5.867810e-06,	7.817939e-05	
269	5.395391e+10	5.909767e-06,	7.821801e-05	
270	5.415411e+10	5.951882e-06,	7.825903e-05	
271	5.435431e+10	5.994154e-06,	7.830240e-05	
272	5.455451e+10	6.036585e-06,	7.834805e-05	
273	5.475471e+10	6.079171e-06,	7.839595e-05	
274	5.495491e+10	6.121916e-06,	7.844602e-05	
275	5.515511e+10	6.164817e-06,	7.849822e-05	
276	5.535531e+10	6.207874e-06,	7.855251e-05	
277	5.555551e+10	6.251088e-06,	7.860882e-05	
278	5.575571e+10	6.294457e-06,	7.866712e-05	
279	5.595591e+10	6.337983e-06,	7.872737e-05	
280	5.615611e+10	6.381665e-06,	7.878951e-05	
281	5.635631e+10	6.425501e-06,	7.885350e-05	
282	5.655651e+10	6.469493e-06,	7.891931e-05	
283	5.675671e+10	6.513642e-06,	7.898688e-05	
284	5.695691e+10	6.557943e-06,	7.905620e-05	
285	5.715711e+10	6.602401e-06,	7.912720e-05	
286	5.735731e+10	6.647011e-06,	7.919987e-05	

Index   frequency       /n1                             
--------------------------------------------------------------------------------
287	5.755752e+10	6.691777e-06,	7.927416e-05	
288	5.775772e+10	6.736698e-06,	7.935004e-05	
289	5.795792e+10	6.781771e-06,	7.942747e-05	
290	5.815812e+10	6.826997e-06,	7.950642e-05	
291	5.835832e+10	6.872380e-06,	7.958686e-05	
292	5.855852e+10	6.917914e-06,	7.966876e-05	
293	5.875872e+10	6.963601e-06,	7.975209e-05	
294	5.895892e+10	7.009443e-06,	7.983682e-05	
295	5.915912e+10	7.055437e-06,	7.992291e-05	
296	5.935932e+10	7.101584e-06,	8.001035e-05	
297	5.955952e+10	7.147882e-06,	8.009910e-05	
298	5.975972e+10	7.194335e-06,	8.018914e-05	
299	5.995992e+10	7.240939e-06,	8.028044e-05	
300	6.016012e+10	7.287695e-06,	8.037298e-05	
301	6.036032e+10	7.334604e-06,	8.046673e-05	
302	6.056052e+10	7.381663e-06,	8.056167e-05	
303	6.076072e+10	7.428875e-06,	8.065777e-05	
304	6.096092e+10	7.476238e-06,	8.075502e-05	
305	6.116112e+10	7.523753e-06,	8.085338e-05	
306	6.136132e+10	7.571419e-06,	8.095285e-05	
307	6.156152e+10	7.619237e-06,	8.105339e-05	
308	6.176172e+10	7.667203e-06,	8.115499e-05	
309	6.196192e+10	7.715323e-06,	8.125762e-05	
310	6.216212e+10	7.763592e-06,	8.136127e-05	
311	6.236232e+10	7.812013e-06,	8.146592e-05	
312	6.256253e+10	7.860583e-06,	8.157155e-05	
313	6.276273e+10	7.909303e-06,	8.167814e-05	
314	6.296293e+10	7.958175e-06,	8.178568e-05	
315	6.316313e+10	8.007195e-06,	8.189414e-05	
316	6.336333e+10	8.056365e-06,	8.200350e-05	
317	6.356353e+10	8.105685e-06,	8.211376e-05	
318	6.376373e+10	8.155156e-06,	8.222490e-05	
319	6.396393e+10	8.204775e-06,	8.233690e-05	
320	6.416413e+10	8.254543e-06,	8.244974e-05	
321	6.436433e+10	8.304461e-06,	8.256341e-05	
322	6.456453e+10	8.354528e-06,	8.267789e-05	
323	6.476473e+10	8.404742e-06,	8.279318e-05	
324	6.496493e+10	8.455108e-06,	8.290925e-05	
325	6.516513e+10	8.505620e-06,	8.302609e-05	
326	6.536533e+10	8.556282e-06,	8.314369e-05	
327	6.556553e+10	8.607094e-06,	8.326204e-05	
328	6.576573e+10	8.658052e-06,	8.338111e-05	
329	6.596593e+10	8.709158e-06,	8.350091e-05	
330	6.616613e+10	8.760413e-06,	8.362142e-05	
331	6.636633e+10	8.811815e-06,	8.374262e-05	
332	6.656653e+10	8.863366e-06,	8.386450e-05	
333	6.676673e+10	8.915063e-06,	8.398705e-05	
334	6.696693e+10	8.966909e-06,	8.411027e-05	
335	6.716713e+10	9.018902e-06,	8.423413e-05	
336	6.736733e+10	9.071042e-06,	8.435863e-05	
337	6.756754e+10	9.123330e-06,	8.448376e-05	
338	6.776774e+10	9.175764e-06,	8.460950e-05	
339	6.796794e+10	9.228346e-06,	8.473585e-05	
340	6.816814e+10	9.281074e-06,	8.486280e-05	
341	6.836834e+10	9.333950e-06,	8.499033e-05	
342	6.856854e+10	9.386971e-06,	8.511844e-05	
343	6.876874e+10	9.440140e-06,	8.524712e-05	
344	6.896894e+10	9.493454e-06,	8.537635e-05	

Index   frequency       /n1                             
--------------------------------------------------------------------------------
345	6.916914e+10	9.546915e-06,	8.550613e-05	
346	6.936934e+10	9.600522e-06,	8.563645e-05	
347	6.956954e+10	9.654275e-06,	8.576730e-05	
348	6.976974e+10	9.708174e-06,	8.589868e-05	
349	6.996994e+10	9.762219e-06,	8.603056e-05	
350	7.017014e+10	9.816409e-06,	8.616296e-05	
351	7.037034e+10	9.870745e-06,	8.629585e-05	
352	7.057054e+10	9.925227e-06,	8.642922e-05	
353	7.077074e+10	9.979854e-06,	8.656308e-05	
354	7.097094e+10	1.003463e-05,	8.669742e-05	
355	7.117114e+10	1.008954e-05,	8.683222e-05	
356	7.137134e+10	1.014460e-05,	8.696748e-05	
357	7.157154e+10	1.019981e-05,	8.710319e-05	
358	7.177174e+10	1.025516e-05,	8.723934e-05	
359	7.197194e+10	1.031066e-05,	8.737593e-05	
360	7.217214e+10	1.036630e-05,	8.751295e-05	
361	7.237234e+10	1.042209e-05,	8.765040e-05	
362	7.257255e+10	1.047802e-05,	8.778826e-05	
363	7.277275e+10	1.053409e-05,	8.792653e-05	
364	7.297295e+10	1.059031e-05,	8.806521e-05	
365	7.317315e+10	1.064667e-05,	8.820428e-05	
366	7.337335e+10	1.070318e-05,	8.834375e-05	
367	7.357355e+10	1.075983e-05,	8.848360e-05	
368	7.377375e+10	1.081662e-05,	8.862383e-05	
369	7.397395e+10	1.087355e-05,	8.876443e-05	
370	7.417415e+10	1.093063e-05,	8.890540e-05	
371	7.437435e+10	1.098786e-05,	8.904674e-05	
372	7.457455e+10	1.104522e-05,	8.918843e-05	
373	7.477475e+10	1.110273e-05,	8.933047e-05	
374	7.497495e+10	1.116039e-05,	8.947286e-05	
375	7.517515e+10	1.121818e-05,	8.961558e-05	
376	7.537535e+10	1.127612e-05,	8.975864e-05	
377	7.557555e+10	1.133420e-05,	8.990204e-05	
378	7.577575e+10	1.139242e-05,	9.004575e-05	
379	7.597595e+10	1.145079e-05,	9.018979e-05	
380	7.617615e+10	1.150930e-05,	9.033414e-05	
381	7.637635e+10	1.156795e-05,	9.047881e-05	
382	7.657655e+10	1.162674e-05,	9.062377e-05	
383	7.677675e+10	1.168567e-05,	9.076904e-05	
384	7.697695e+10	1.174475e-05,	9.091461e-05	
385	7.717715e+10	1.180396e-05,	9.106046e-05	
386	7.737735e+10	1.186332e-05,	9.120661e-05	
387	7.757756e+10	1.192282e-05,	9.135304e-05	
388	7.777776e+10	1.198247e-05,	9.149974e-05	
389	7.797796e+10	1.204225e-05,	9.164672e-05	
390	7.817816e+10	1.210217e-05,	9.179397e-05	
391	7.837836e+10	1.216224e-05,	9.194149e-05	
392	7.857856e+10	1.222245e-05,	9.208927e-05	
393	7.877876e+10	1.228279e-05,	9.223731e-05	
394	7.897896e+10	1.234328e-05,	9.238560e-05	
395	7.917916e+10	1.240391e-05,	9.253414e-05	
396	7.937936e+10	1.246468e-05,	9.268293e-05	
397	7.957956e+10	1.252559e-05,	9.283197e-05	
398	7.977976e+10	1.258664e-05,	9.298124e-05	
399	7.997996e+10	1.264783e-05,	9.313074e-05	
400	8.018016e+10	1.270916e-05,	9.328048e-05	
401	8.038036e+10	1.277063e-05,	9.343045e-05	
402	8.058056e+10	1.283224e-05,	9.358064e-05	

Index   frequency       /n1                             
--------------------------------------------------------------------------------
403	8.078076e+10	1.289399e-05,	9.373106e-05	
404	8.098096e+10	1.295588e-05,	9.388169e-05	
405	8.118116e+10	1.301791e-05,	9.403254e-05	
406	8.138136e+10	1.308008e-05,	9.418360e-05	
407	8.158156e+10	1.314238e-05,	9.433487e-05	
408	8.178176e+10	1.320483e-05,	9.448634e-05	
409	8.198196e+10	1.326741e-05,	9.463802e-05	
410	8.218216e+10	1.333014e-05,	9.478989e-05	
411	8.238236e+10	1.339300e-05,	9.494196e-05	
412	8.258257e+10	1.345600e-05,	9.509423e-05	
413	8.278277e+10	1.351914e-05,	9.524668e-05	
414	8.298297e+10	1.358242e-05,	9.539933e-05	
415	8.318317e+10	1.364584e-05,	9.555215e-05	
416	8.338337e+10	1.370940e-05,	9.570516e-05	
